
**** 02/22/22 16:11:12 ********* PSpice 9.2 (Mar 2000) ******** ID# 0 ********

 * E:\OneDrive - BUET\Tahsin\CODING ZONE\PSPICE Simulation\ALL EXPERIMENTS\EEE 208\OP-AMP\Regulated Variable DC Power Supply Generati


 ****     CIRCUIT DESCRIPTION


******************************************************************************




* Schematics Version 9.2
* Tue Feb 22 16:11:07 2022


.PARAM         var1=1k 

** Analysis setup **
.tran 30u 0.28 0 30u
.STEP LIN PARAM var1 50 3k 100 
.OP 


* From [PSPICE NETLIST] section of C:\Program Files\Orcad\PSpice\PSpice.ini:
.lib "nom.lib"

.INC "Final_ckt.net"



**** INCLUDING Final_ckt.net ****
* Schematics Netlist *



X_U3         0 $N_0001 V+ V- $N_0002 uA741
R_R3         $N_0002 $N_0001  {var1}  
R_R14         0 $N_0005  1k  
X_U10         $N_0005 $N_0006 V+ V- $N_0006 uA741
R_R17         $N_0009 $N_0006  1k  
Q_Q1         $N_0006 $N_0010 $N_0011 Q2N3904
V_V4         $N_0009 0 1.5V
X_U12         $N_0009 $N_0012 V+ V- $N_0010 uA741
X_U9         $N_0015 $N_0005 V+ V- $N_0005 uA741
V_V2         0 V- 15V
V_V3         V+ 0 15V
V_V1         0 $N_0018 0.184V
R_R6         $N_0020 $N_0019  1k  
R_R7         $N_0019 $N_0021  1k  
R_R8         0 $N_0020  1k  
R_R9         $N_0023 $N_0022  1k  
X_U4         0 $N_0023 V+ V- $N_0022 uA741
X_U5         $N_0022 $N_0026 V+ $N_0018 $N_0026 uA741
X_U6         $N_0026 $N_0020 V+ V- $N_0019 uA741
X_U11         0 $N_0021 V+ V- $N_0031 uA741
R_R16         $N_0021 $N_0031  1k  
R_R21         $N_0035 $N_0034  1  
R_R22         0 $N_0036  100k  
X_U14         $N_0036 $N_0037 V+ V- $N_0037 uA741
X_TX1    $N_0034 0 $N_0036 0 Final_ckt_TX1 
R_R5         $N_0037 $N_0023  1k  
R_R10         $N_0037 $N_0021  1k  
C_C1         0 $N_0005  500u  
R_R19         $N_0012 $N_0011  650k  
R_R18         0 $N_0012  650k  
X_U1         0 $N_0040 V+ V- $N_0041 uA741
R_R1         $N_0041 $N_0040  1k  
R_R4         $N_0040 $N_0011  1k  
R_R25         0 $N_0002  100k  
R_R15         $N_0031 $N_0044  1k  
X_U7         0 $N_0044 V+ V- $N_0015 uA741
R_R12         $N_0044 $N_0015  1k  
V_V6         $N_0035 0 DC 0 AC 0
+SIN 0 220V 50 0 0 0
R_R20         $N_0001 $N_0041  500  

.subckt Final_ckt_TX1 1 2 3 4  
K_TX1         L1_TX1 L2_TX1 1
L1_TX1         1 2 440mH
L2_TX1         3 4 0.23mH
.ends Final_ckt_TX1

**** RESUMING Final_ckt.cir ****
.PROBE V(*) I(*) W(*) D(*) NOISE(*) 


.END

**** 02/22/22 16:11:12 ********* PSpice 9.2 (Mar 2000) ******** ID# 0 ********

 * E:\OneDrive - BUET\Tahsin\CODING ZONE\PSPICE Simulation\ALL EXPERIMENTS\EEE 208\OP-AMP\Regulated Variable DC Power Supply Generati


 ****     Diode MODEL PARAMETERS


******************************************************************************




               X_U3.dx         X_U3.dy         X_U10.dx        X_U10.dy        
          IS  800.000000E-18  800.000000E-18  800.000000E-18  800.000000E-18 
          RS    1               1.000000E-03    1               1.000000E-03 
         CJO                   10.000000E-12                   10.000000E-12 


               X_U12.dx        X_U12.dy        X_U9.dx         X_U9.dy         
          IS  800.000000E-18  800.000000E-18  800.000000E-18  800.000000E-18 
          RS    1               1.000000E-03    1               1.000000E-03 
         CJO                   10.000000E-12                   10.000000E-12 


               X_U4.dx         X_U4.dy         X_U5.dx         X_U5.dy         
          IS  800.000000E-18  800.000000E-18  800.000000E-18  800.000000E-18 
          RS    1               1.000000E-03    1               1.000000E-03 
         CJO                   10.000000E-12                   10.000000E-12 


               X_U6.dx         X_U6.dy         X_U11.dx        X_U11.dy        
          IS  800.000000E-18  800.000000E-18  800.000000E-18  800.000000E-18 
          RS    1               1.000000E-03    1               1.000000E-03 
         CJO                   10.000000E-12                   10.000000E-12 


               X_U14.dx        X_U14.dy        X_U1.dx         X_U1.dy         
          IS  800.000000E-18  800.000000E-18  800.000000E-18  800.000000E-18 
          RS    1               1.000000E-03    1               1.000000E-03 
         CJO                   10.000000E-12                   10.000000E-12 


               X_U7.dx         X_U7.dy         
          IS  800.000000E-18  800.000000E-18 
          RS    1               1.000000E-03 
         CJO                   10.000000E-12 


**** 02/22/22 16:11:12 ********* PSpice 9.2 (Mar 2000) ******** ID# 0 ********

 * E:\OneDrive - BUET\Tahsin\CODING ZONE\PSPICE Simulation\ALL EXPERIMENTS\EEE 208\OP-AMP\Regulated Variable DC Power Supply Generati


 ****     BJT MODEL PARAMETERS


******************************************************************************




               Q2N3904         X_U3.qx         X_U10.qx        X_U12.qx        
               NPN             NPN             NPN             NPN             
          IS    6.734000E-15  800.000000E-18  800.000000E-18  800.000000E-18 
          BF  416.4            93.75           93.75           93.75         
          NF    1               1               1               1            
         VAF   74.03                                                         
         IKF     .06678                                                      
         ISE    6.734000E-15                                                 
          NE    1.259                                                        
          BR     .7371          1               1               1            
          NR    1               1               1               1            
          RB   10                                                            
          RC    1                                                            
         CJE    4.493000E-12                                                 
         MJE     .2593                                                       
         CJC    3.638000E-12                                                 
         MJC     .3085                                                       
          TF  301.200000E-12                                                 
         XTF    2                                                            
         VTF    4                                                            
         ITF     .4                                                          
          TR  239.500000E-09                                                 
         XTB    1.5                                                          
          CN    2.42            2.42            2.42            2.42         
           D     .87             .87             .87             .87         


               X_U9.qx         X_U4.qx         X_U5.qx         X_U6.qx         
               NPN             NPN             NPN             NPN             
          IS  800.000000E-18  800.000000E-18  800.000000E-18  800.000000E-18 
          BF   93.75           93.75           93.75           93.75         
          NF    1               1               1               1            
          BR    1               1               1               1            
          NR    1               1               1               1            
          CN    2.42            2.42            2.42            2.42         
           D     .87             .87             .87             .87         


               X_U11.qx        X_U14.qx        X_U1.qx         X_U7.qx         
               NPN             NPN             NPN             NPN             
          IS  800.000000E-18  800.000000E-18  800.000000E-18  800.000000E-18 
          BF   93.75           93.75           93.75           93.75         
          NF    1               1               1               1            
          BR    1               1               1               1            
          NR    1               1               1               1            
          CN    2.42            2.42            2.42            2.42         
           D     .87             .87             .87             .87         


**** 02/22/22 16:11:12 ********* PSpice 9.2 (Mar 2000) ******** ID# 0 ********

 * E:\OneDrive - BUET\Tahsin\CODING ZONE\PSPICE Simulation\ALL EXPERIMENTS\EEE 208\OP-AMP\Regulated Variable DC Power Supply Generati


 ****     SMALL SIGNAL BIAS SOLUTION       TEMPERATURE =   27.000 DEG C

 ****     CURRENT STEP                     PARAM VAR1 =   50    


******************************************************************************



 NODE   VOLTAGE     NODE   VOLTAGE     NODE   VOLTAGE     NODE   VOLTAGE


(   V+)   15.0000  (   V-)  -15.0000  (X_U1.6) 105.5E-06 (X_U1.7)    -.8845     

(X_U1.8)    -.8845 (X_U1.9)    0.0000 (X_U3.6)-29.30E-06 (X_U3.7)     .1539     

(X_U3.8)     .1539 (X_U3.9)    0.0000 (X_U4.6)-11.64E-09 (X_U4.7) 106.2E-06     

(X_U4.8) 106.2E-06 (X_U4.9)    0.0000 (X_U5.6)     .2304 (X_U5.7)   -1.2039     

(X_U5.8)   -1.2039 (X_U5.9)    0.0000 (X_U6.6)-3.021E-06 (X_U6.7)     .0281     

(X_U6.8)     .0281 (X_U6.9)    0.0000 (X_U7.6)-2.835E-06 (X_U7.7)     .0274     

(X_U7.8)     .0274 (X_U7.9)    0.0000 (X_U9.6)-2.837E-06 (X_U9.7)     .0274     

(X_U9.8)     .0274 (X_U9.9)    0.0000 ($N_0001) 17.69E-06                       

($N_0002)     .0769                   ($N_0005)     .0261                       

($N_0006)     .7301                   ($N_0009)    1.5000                       

($N_0010)    1.9292                   ($N_0011)     .7692                       

($N_0012)     .3846                   ($N_0015)     .0261                       

($N_0018)    -.1840                   ($N_0019)     .0261                       

($N_0020)     .0130                   ($N_0021) 19.42E-06                       

($N_0022) 99.01E-06                   ($N_0023) 19.25E-06                       

($N_0026)     .0130                   ($N_0031)    -.0260                       

($N_0034)    0.0000                   ($N_0035)    0.0000                       

($N_0036)    0.0000                   ($N_0037) 19.25E-06                       

($N_0040) 24.86E-06                   ($N_0041)    -.7691                       

($N_0044) 19.10E-06                   (X_U1.10)    -.6077                       

(X_U1.11)   14.9600                   (X_U1.12)   14.9600                       

(X_U1.13)    -.5938                   (X_U1.14)    -.5938                       

(X_U1.53)   14.0000                   (X_U1.54)  -14.0000                       

(X_U1.90)   -2.3074                   (X_U1.91)   40.0000                       

(X_U1.92)  -40.0000                   (X_U1.99)    0.0000                       

(X_U10.6)    1.5007                   (X_U10.7)   -1.3006                       

(X_U10.8)   -1.3006                   (X_U10.9)    0.0000                       

(X_U11.6) 3.193E-06                   (X_U11.7)    -.0286                       

(X_U11.8)    -.0286                   (X_U11.9)    0.0000                       

(X_U12.6)   -1.5059                   (X_U12.7)    3.9599                       

(X_U12.8)    3.9599                   (X_U12.9)    0.0000                       

(X_U14.6)-3.200E-09                   (X_U14.7) 23.23E-06                       

(X_U14.8) 23.23E-06                   (X_U14.9)    0.0000                       

(X_U3.10)    -.6077                   (X_U3.11)   14.9600                       

(X_U3.12)   14.9600                   (X_U3.13)    -.5938                       

(X_U3.14)    -.5938                   (X_U3.53)   14.0000                       

(X_U3.54)  -14.0000                   (X_U3.90)    1.5391                       

(X_U3.91)   40.0000                   (X_U3.92)  -40.0000                       

(X_U3.99)    0.0000                   (X_U4.10)    -.6077                       

(X_U4.11)   14.9600                   (X_U4.12)   14.9600                       

(X_U4.13)    -.5938                   (X_U4.14)    -.5938                       

(X_U4.53)   14.0000                   (X_U4.54)  -14.0000                       

(X_U4.90) 144.0E-06                   (X_U4.91)   40.0000                       

(X_U4.92)  -40.0000                   (X_U4.99)    0.0000                       

(X_U5.10)    -.5993                   (X_U5.11)   14.9560                       

(X_U5.12)   14.9680                   (X_U5.13)    -.5837                       

(X_U5.14)    -.5881                   (X_U5.53)   14.0000                       

(X_U5.54)     .8160                   (X_U5.90)  -24.3390                       

(X_U5.91)   40.0000                   (X_U5.92)  -40.0000                       

(X_U5.99)    7.4080                   (X_U6.10)    -.5947                       

(X_U6.11)   14.9600                   (X_U6.12)   14.9600                       

(X_U6.13)    -.5808                   (X_U6.14)    -.5808                       

(X_U6.53)   14.0000                   (X_U6.54)  -14.0000                       

(X_U6.90)     .0392                   (X_U6.91)   40.0000                       

(X_U6.92)  -40.0000                   (X_U6.99)    0.0000                       

(X_U7.10)    -.6077                   (X_U7.11)   14.9600                       

(X_U7.12)   14.9600                   (X_U7.13)    -.5938                       

(X_U7.14)    -.5938                   (X_U7.53)   14.0000                       

(X_U7.54)  -14.0000                   (X_U7.90)     .0262                       

(X_U7.91)   40.0000                   (X_U7.92)  -40.0000                       

(X_U7.99)    0.0000                   (X_U9.10)    -.5816                       

(X_U9.11)   14.9600                   (X_U9.12)   14.9600                       

(X_U9.13)    -.5677                   (X_U9.14)    -.5677                       

(X_U9.53)   14.0000                   (X_U9.54)  -14.0000                       

(X_U9.90)     .0262                   (X_U9.91)   40.0000                       

(X_U9.92)  -40.0000                   (X_U9.99)    0.0000                       

(X_U10.10)     .0905                  (X_U10.11)   14.9200                      

(X_U10.12)   15.0000                  (X_U10.13)     .1183                      

(X_U10.14)     .0905                  (X_U10.53)   14.0000                      

(X_U10.54)  -14.0000                  (X_U10.90)  -40.6130                      

(X_U10.91)   40.0000                  (X_U10.92)  -40.0000                      

(X_U10.99)    0.0000                  (X_U11.10)    -.6077                      

(X_U11.11)   14.9600                  (X_U11.12)   14.9600                      

(X_U11.13)    -.5938                  (X_U11.14)    -.5938                      

(X_U11.53)   14.0000                  (X_U11.54)  -14.0000                      

(X_U11.90)    -.0520                  (X_U11.91)   40.0000                      

(X_U11.92)  -40.0000                  (X_U11.99)    0.0000                      

(X_U12.10)     .8601                  (X_U12.11)   15.0000                      

(X_U12.12)   14.9200                  (X_U12.13)     .8601                      

(X_U12.14)     .8881                  (X_U12.53)   14.0000                      

(X_U12.54)  -14.0000                  (X_U12.90)   40.6130                      

(X_U12.91)   40.0000                  (X_U12.92)  -40.0000                      

(X_U12.99)    0.0000                  (X_U14.10)    -.6077                      

(X_U14.11)   14.9600                  (X_U14.12)   14.9600                      

(X_U14.13)    -.5938                  (X_U14.14)    -.5938                      

(X_U14.53)   14.0000                  (X_U14.54)  -14.0000                      

(X_U14.90) 79.59E-06                  (X_U14.91)   40.0000                      

(X_U14.92)  -40.0000                  (X_U14.99)    0.0000                  




    VOLTAGE SOURCE CURRENTS
    NAME         CURRENT

    V_V4        -7.700E-04
    V_V2        -1.667E-02
    V_V3        -1.752E-02
    V_V1         2.349E-02
    V_V6         0.000E+00
    X_U3.vb     -2.930E-10
    X_U3.vc      1.392E-11
    X_U3.ve      1.440E-11
    X_U3.vlim    1.539E-03
    X_U3.vlp    -3.846E-11
    X_U3.vln    -4.154E-11
    X_U10.vb     1.501E-05
    X_U10.vc     1.327E-11
    X_U10.ve     1.455E-11
    X_U10.vlim  -4.061E-02
    X_U10.vlp   -8.061E-11
    X_U10.vln    1.592E-05
    X_U12.vb    -1.506E-05
    X_U12.vc     1.207E-11
    X_U12.ve     1.637E-11
    X_U12.vlim   4.061E-02
    X_U12.vlp    1.597E-05
    X_U12.vln   -8.062E-11
    X_U9.vb     -2.837E-11
    X_U9.vc      1.397E-11
    X_U9.ve      1.455E-11
    X_U9.vlim    2.619E-05
    X_U9.vlp    -3.997E-11
    X_U9.vln    -4.003E-11
    X_U4.vb     -1.164E-13
    X_U4.vc      1.400E-11
    X_U4.ve      1.455E-11
    X_U4.vlim    1.440E-07
    X_U4.vlp    -4.000E-11
    X_U4.vln    -4.000E-11
    X_U5.vb      2.304E-06
    X_U5.vc      1.399E-11
    X_U5.ve     -2.434E-02
    X_U5.vlim   -2.434E-02
    X_U5.vlp    -6.434E-11
    X_U5.vln    -1.566E-11
    X_U6.vb     -3.021E-11
    X_U6.vc      1.397E-11
    X_U6.ve      1.455E-11
    X_U6.vlim    3.917E-05
    X_U6.vlp    -3.996E-11
    X_U6.vln    -4.004E-11
    X_U11.vb     3.193E-11
    X_U11.vc     1.403E-11
    X_U11.ve     1.455E-11
    X_U11.vlim  -5.200E-05
    X_U11.vlp   -4.005E-11
    X_U11.vln   -3.995E-11
    X_U14.vb    -3.200E-14
    X_U14.vc     1.400E-11
    X_U14.ve     1.455E-11
    X_U14.vlim   7.959E-08
    X_U14.vlp   -4.000E-11
    X_U14.vln   -4.000E-11
    X_U1.vb      1.055E-09
    X_U1.vc      1.477E-11
    X_U1.ve      1.455E-11
    X_U1.vlim   -2.307E-03
    X_U1.vlp    -4.231E-11
    X_U1.vln    -3.770E-11
    X_U7.vb     -2.835E-11
    X_U7.vc      1.397E-11
    X_U7.ve      1.455E-11
    X_U7.vlim    2.616E-05
    X_U7.vlp    -3.997E-11
    X_U7.vln    -4.003E-11

    TOTAL POWER DISSIPATION   5.33E-01  WATTS


**** 02/22/22 16:11:12 ********* PSpice 9.2 (Mar 2000) ******** ID# 0 ********

 * E:\OneDrive - BUET\Tahsin\CODING ZONE\PSPICE Simulation\ALL EXPERIMENTS\EEE 208\OP-AMP\Regulated Variable DC Power Supply Generati


 ****     OPERATING POINT INFORMATION      TEMPERATURE =   27.000 DEG C

 ****     CURRENT STEP                     PARAM VAR1 =   50    


******************************************************************************






**** VOLTAGE-CONTROLLED CURRENT SOURCES


NAME         X_U3.ga     X_U3.gcm    X_U10.ga    X_U10.gcm   X_U12.ga  
I-SOURCE    -3.329E-09  -3.622E-09  -1.501E-05   5.392E-10   1.506E-05

NAME         X_U12.gcm   X_U9.ga     X_U9.gcm    X_U4.ga     X_U4.gcm  
I-SOURCE     5.127E-09  -3.438E-09  -3.467E-09  -3.622E-09  -3.622E-09

NAME         X_U5.ga     X_U5.gcm    X_U6.ga     X_U6.gcm    X_U11.ga  
I-SOURCE    -2.352E-06  -4.773E-08  -3.515E-09  -3.545E-09  -3.654E-09

NAME         X_U11.gcm   X_U14.ga    X_U14.gcm   X_U1.ga     X_U1.gcm  
I-SOURCE    -3.622E-09  -3.622E-09  -3.622E-09  -4.678E-09  -3.622E-09

NAME         X_U7.ga     X_U7.gcm  
I-SOURCE    -3.594E-09  -3.622E-09


**** VOLTAGE-CONTROLLED VOLTAGE SOURCES


NAME         X_U3.egnd   X_U10.egnd  X_U12.egnd  X_U9.egnd   X_U4.egnd 
V-SOURCE     0.000E+00   0.000E+00   0.000E+00   0.000E+00   0.000E+00
I-SOURCE    -1.539E-03   4.061E-02  -4.061E-02  -2.624E-05  -1.880E-07

NAME         X_U5.egnd   X_U6.egnd   X_U11.egnd  X_U14.egnd  X_U1.egnd 
V-SOURCE     7.408E+00   0.000E+00   0.000E+00   0.000E+00   0.000E+00
