
**** 02/22/22 15:59:57 ********* PSpice 9.2 (Mar 2000) ******** ID# 0 ********

 * E:\OneDrive - BUET\Tahsin\CODING ZONE\PSPICE Simulation\ALL EXPERIMENTS\EEE 208\OP-AMP\Regulated Variable DC Power Supply Generati


 ****     CIRCUIT DESCRIPTION


******************************************************************************




* Schematics Version 9.2
* Tue Feb 22 00:14:20 2022



** Analysis setup **
.tran 30u 0.13 0 30u
.OP 


* From [PSPICE NETLIST] section of C:\Program Files\Orcad\PSpice\PSpice.ini:
.lib "nom.lib"

.INC "Rectifying_signal.net"



**** INCLUDING Rectifying_signal.net ****
* Schematics Netlist *



V_V1         0 $N_0001 0.184V
R_R6         $N_0002 D  1k  
R_R7         D $N_0003  1k  
R_R8         0 $N_0002  1k  
R_R9         $N_0004 B  1k  
X_U4         0 $N_0004 V+ V- B uA741
X_U5         B C V+ $N_0001 C uA741
X_U6         C $N_0002 V+ V- D uA741
X_U11         0 $N_0003 V+ V- E uA741
R_R16         $N_0003 E  1k  
R_R21         $N_0014 $N_0013  1  
R_R22         0 $N_0015  100k  
X_U14         $N_0015 A V+ V- A uA741
X_TX1    $N_0013 0 $N_0015 0 Rectifying_signal_TX1 
R_R5         A $N_0004  1k  
R_R10         A $N_0003  1k  
R_R12         $N_0018 F  1k  
X_U7         0 $N_0018 V+ V- F uA741
R_R15         E $N_0018  1k  
V_V2         0 V- 15V
V_V3         V+ 0 15V
R_R26         0 F  100k  
V_V6         $N_0014 0 DC 0 AC 0
+SIN 0 220V 50 0 0 0

.subckt Rectifying_signal_TX1 1 2 3 4  
K_TX1         L1_TX1 L2_TX1 1
L1_TX1         1 2 440mH
L2_TX1         3 4 0.23mH
.ends Rectifying_signal_TX1

**** RESUMING Rectifying_signal.cir ****
.PROBE V(*) I(*) W(*) D(*) NOISE(*) 


.END

**** 02/22/22 15:59:57 ********* PSpice 9.2 (Mar 2000) ******** ID# 0 ********

 * E:\OneDrive - BUET\Tahsin\CODING ZONE\PSPICE Simulation\ALL EXPERIMENTS\EEE 208\OP-AMP\Regulated Variable DC Power Supply Generati


 ****     Diode MODEL PARAMETERS


******************************************************************************




               X_U4.dx         X_U4.dy         X_U5.dx         X_U5.dy         
          IS  800.000000E-18  800.000000E-18  800.000000E-18  800.000000E-18 
          RS    1               1.000000E-03    1               1.000000E-03 
         CJO                   10.000000E-12                   10.000000E-12 


               X_U6.dx         X_U6.dy         X_U11.dx        X_U11.dy        
          IS  800.000000E-18  800.000000E-18  800.000000E-18  800.000000E-18 
          RS    1               1.000000E-03    1               1.000000E-03 
         CJO                   10.000000E-12                   10.000000E-12 


               X_U14.dx        X_U14.dy        X_U7.dx         X_U7.dy         
          IS  800.000000E-18  800.000000E-18  800.000000E-18  800.000000E-18 
          RS    1               1.000000E-03    1               1.000000E-03 
         CJO                   10.000000E-12                   10.000000E-12 


**** 02/22/22 15:59:57 ********* PSpice 9.2 (Mar 2000) ******** ID# 0 ********

 * E:\OneDrive - BUET\Tahsin\CODING ZONE\PSPICE Simulation\ALL EXPERIMENTS\EEE 208\OP-AMP\Regulated Variable DC Power Supply Generati


 ****     BJT MODEL PARAMETERS


******************************************************************************




               X_U4.qx         X_U5.qx         X_U6.qx         X_U11.qx        
               NPN             NPN             NPN             NPN             
          IS  800.000000E-18  800.000000E-18  800.000000E-18  800.000000E-18 
          BF   93.75           93.75           93.75           93.75         
          NF    1               1               1               1            
          BR    1               1               1               1            
          NR    1               1               1               1            
          CN    2.42            2.42            2.42            2.42         
           D     .87             .87             .87             .87         


               X_U14.qx        X_U7.qx         
               NPN             NPN             
          IS  800.000000E-18  800.000000E-18 
          BF   93.75           93.75         
          NF    1               1            
          BR    1               1            
          NR    1               1            
          CN    2.42            2.42         
           D     .87             .87         


**** 02/22/22 15:59:57 ********* PSpice 9.2 (Mar 2000) ******** ID# 0 ********

 * E:\OneDrive - BUET\Tahsin\CODING ZONE\PSPICE Simulation\ALL EXPERIMENTS\EEE 208\OP-AMP\Regulated Variable DC Power Supply Generati


 ****     SMALL SIGNAL BIAS SOLUTION       TEMPERATURE =   27.000 DEG C


******************************************************************************



 NODE   VOLTAGE     NODE   VOLTAGE     NODE   VOLTAGE     NODE   VOLTAGE


(    A) 19.25E-06  (    B) 99.01E-06  (    C)     .0130  (    D)     .0261      

(    E)    -.0260  (    F)     .0261  (   V+)   15.0000  (   V-)  -15.0000      

(X_U4.6)-11.63E-09 (X_U4.7) 106.2E-06 (X_U4.8) 106.2E-06 (X_U4.9)    0.0000     

(X_U5.6)     .2304 (X_U5.7)   -1.2039 (X_U5.8)   -1.2039 (X_U5.9)    0.0000     

(X_U6.6)-3.021E-06 (X_U6.7)     .0281 (X_U6.8)     .0281 (X_U6.9)    0.0000     

(X_U7.6)-2.837E-06 (X_U7.7)     .0274 (X_U7.8)     .0274 (X_U7.9)    0.0000     

($N_0001)    -.1840                   ($N_0002)     .0130                       

($N_0003) 19.42E-06                   ($N_0004) 19.25E-06                       

($N_0013)    0.0000                   ($N_0014)    0.0000                       

($N_0015)    0.0000                   ($N_0018) 19.10E-06                       

(X_U11.6) 3.193E-06                   (X_U11.7)    -.0286                       

(X_U11.8)    -.0286                   (X_U11.9)    0.0000                       

(X_U14.6)-3.200E-09                   (X_U14.7) 23.23E-06                       

(X_U14.8) 23.23E-06                   (X_U14.9)    0.0000                       

(X_U4.10)    -.6077                   (X_U4.11)   14.9600                       

(X_U4.12)   14.9600                   (X_U4.13)    -.5938                       

(X_U4.14)    -.5938                   (X_U4.53)   14.0000                       

(X_U4.54)  -14.0000                   (X_U4.90) 142.6E-06                       

(X_U4.91)   40.0000                   (X_U4.92)  -40.0000                       

(X_U4.99)    0.0000                   (X_U5.10)    -.5993                       

(X_U5.11)   14.9560                   (X_U5.12)   14.9680                       

(X_U5.13)    -.5837                   (X_U5.14)    -.5881                       

(X_U5.53)   14.0000                   (X_U5.54)     .8160                       

(X_U5.90)  -24.3390                   (X_U5.91)   40.0000                       

(X_U5.92)  -40.0000                   (X_U5.99)    7.4080                       

(X_U6.10)    -.5947                   (X_U6.11)   14.9600                       

(X_U6.12)   14.9600                   (X_U6.13)    -.5808                       

(X_U6.14)    -.5808                   (X_U6.53)   14.0000                       

(X_U6.54)  -14.0000                   (X_U6.90)     .0392                       

(X_U6.91)   40.0000                   (X_U6.92)  -40.0000                       

(X_U6.99)    0.0000                   (X_U7.10)    -.6077                       

(X_U7.11)   14.9600                   (X_U7.12)   14.9600                       

(X_U7.13)    -.5938                   (X_U7.14)    -.5938                       

(X_U7.53)   14.0000                   (X_U7.54)  -14.0000                       

(X_U7.90)     .0263                   (X_U7.91)   40.0000                       

(X_U7.92)  -40.0000                   (X_U7.99)    0.0000                       

(X_U11.10)    -.6077                  (X_U11.11)   14.9600                      

(X_U11.12)   14.9600                  (X_U11.13)    -.5938                      

(X_U11.14)    -.5938                  (X_U11.53)   14.0000                      

(X_U11.54)  -14.0000                  (X_U11.90)    -.0520                      

(X_U11.91)   40.0000                  (X_U11.92)  -40.0000                      

(X_U11.99)    0.0000                  (X_U14.10)    -.6077                      

(X_U14.11)   14.9600                  (X_U14.12)   14.9600                      

(X_U14.13)    -.5938                  (X_U14.14)    -.5938                      

(X_U14.53)   14.0000                  (X_U14.54)  -14.0000                      

(X_U14.90) 79.59E-06                  (X_U14.91)   40.0000                      

(X_U14.92)  -40.0000                  (X_U14.99)    0.0000                  




    VOLTAGE SOURCE CURRENTS
    NAME         CURRENT

    V_V1         2.349E-02
    V_V2        -8.336E-03
    V_V3        -9.185E-03
    V_V6         0.000E+00
    X_U4.vb     -1.163E-13
    X_U4.vc      1.400E-11
    X_U4.ve      1.455E-11
    X_U4.vlim    1.426E-07
    X_U4.vlp    -4.000E-11
    X_U4.vln    -4.000E-11
    X_U5.vb      2.304E-06
    X_U5.vc      1.399E-11
    X_U5.ve     -2.434E-02
    X_U5.vlim   -2.434E-02
    X_U5.vlp    -6.434E-11
    X_U5.vln    -1.566E-11
    X_U6.vb     -3.021E-11
    X_U6.vc      1.397E-11
    X_U6.ve      1.455E-11
    X_U6.vlim    3.917E-05
    X_U6.vlp    -3.996E-11
    X_U6.vln    -4.004E-11
    X_U11.vb     3.193E-11
    X_U11.vc     1.403E-11
    X_U11.ve     1.455E-11
    X_U11.vlim  -5.200E-05
    X_U11.vlp   -4.005E-11
    X_U11.vln   -3.995E-11
    X_U14.vb    -3.200E-14
    X_U14.vc     1.400E-11
    X_U14.ve     1.455E-11
    X_U14.vlim   7.959E-08
    X_U14.vlp   -4.000E-11
    X_U14.vln   -4.000E-11
    X_U7.vb     -2.837E-11
    X_U7.vc      1.397E-11
    X_U7.ve      1.455E-11
    X_U7.vlim    2.634E-05
    X_U7.vlp    -3.997E-11
    X_U7.vln    -4.003E-11

    TOTAL POWER DISSIPATION   2.83E-01  WATTS


**** 02/22/22 15:59:57 ********* PSpice 9.2 (Mar 2000) ******** ID# 0 ********

 * E:\OneDrive - BUET\Tahsin\CODING ZONE\PSPICE Simulation\ALL EXPERIMENTS\EEE 208\OP-AMP\Regulated Variable DC Power Supply Generati


 ****     OPERATING POINT INFORMATION      TEMPERATURE =   27.000 DEG C


******************************************************************************






**** VOLTAGE-CONTROLLED CURRENT SOURCES


NAME         X_U4.ga     X_U4.gcm    X_U5.ga     X_U5.gcm    X_U6.ga   
I-SOURCE    -3.622E-09  -3.622E-09  -2.352E-06  -4.773E-08  -3.515E-09

NAME         X_U6.gcm    X_U11.ga    X_U11.gcm   X_U14.ga    X_U14.gcm 
I-SOURCE    -3.545E-09  -3.654E-09  -3.622E-09  -3.622E-09  -3.622E-09

NAME         X_U7.ga     X_U7.gcm  
I-SOURCE    -3.594E-09  -3.622E-09


**** VOLTAGE-CONTROLLED VOLTAGE SOURCES


NAME         X_U4.egnd   X_U5.egnd   X_U6.egnd   X_U11.egnd  X_U14.egnd
V-SOURCE     0.000E+00   7.408E+00   0.000E+00   0.000E+00   0.000E+00
I-SOURCE    -1.867E-07   2.434E-02  -3.921E-05   5.195E-05  -1.236E-07

NAME         X_U7.egnd 
V-SOURCE     0.000E+00
I-SOURCE    -2.638E-05


**** CURRENT-CONTROLLED CURRENT SOURCES


NAME         X_U4.fb     X_U5.fb     X_U6.fb     X_U11.fb    X_U14.fb  
I-SOURCE    -1.111E-06   1.105E-01  -3.140E-04   3.317E-04  -2.016E-07

NAME         X_U7.fb   
I-SOURCE    -2.951E-04


**** CURRENT-CONTROLLED VOLTAGE SOURCES


NAME         X_U4.hlim   X_U5.hlim   X_U6.hlim   X_U11.hlim  X_U14.hlim
V-SOURCE     1.426E-04  -2.434E+01   3.917E-02  -5.200E-02   7.959E-05
I-SOURCE    -2.853E-16   4.868E-11  -7.834E-14   1.040E-13  -1.592E-16

NAME         X_U7.hlim 
V-SOURCE     2.634E-02
I-SOURCE    -5.268E-14


**** DIODES


NAME         X_U4.dc     X_U4.de     X_U4.dlp    X_U4.dln    X_U4.dp   
MODEL        X_U4.dy     X_U4.dy     X_U4.dx     X_U4.dx     X_U4.dx   
ID          -1.40E-11   -1.40E-11   -4.00E-11   -4.00E-11   -3.00E-11 
VD          -1.40E+01   -1.40E+01   -4.00E+01   -4.00E+01   -3.00E+01 
REQ          1.00E+12    1.00E+12    1.00E+12    1.00E+12    1.00E+12 
CAP          2.58E-12    2.58E-12    0.00E+00    0.00E+00    0.00E+00 

NAME         X_U5.dc     X_U5.de     X_U5.dlp    X_U5.dln    X_U5.dp   
MODEL        X_U5.dy     X_U5.dy     X_U5.dx     X_U5.dx     X_U5.dx   
ID          -1.40E-11    2.43E-02   -6.43E-11   -1.57E-11   -1.52E-11 
VD          -1.40E+01    8.03E-01   -6.43E+01   -1.57E+01   -1.52E+01 
REQ          1.00E+12    1.06E+00    1.00E+12    1.00E+12    1.00E+12 
CAP          2.58E-12    1.84E-11    0.00E+00    0.00E+00    0.00E+00 

NAME         X_U6.dc     X_U6.de     X_U6.dlp    X_U6.dln    X_U6.dp   
MODEL        X_U6.dy     X_U6.dy     X_U6.dx     X_U6.dx     X_U6.dx   
ID          -1.40E-11   -1.40E-11   -4.00E-11   -4.00E-11   -3.00E-11 
VD          -1.40E+01   -1.40E+01   -4.00E+01   -4.00E+01   -3.00E+01 
REQ          1.00E+12    1.00E+12    1.00E+12    1.00E+12    1.00E+12 
CAP          2.58E-12    2.58E-12    0.00E+00    0.00E+00    0.00E+00 

NAME         X_U11.dc    X_U11.de    X_U11.dlp   X_U11.dln   X_U11.dp  
MODEL        X_U11.dy    X_U11.dy    X_U11.dx    X_U11.dx    X_U11.dx  
ID          -1.40E-11   -1.40E-11   -4.01E-11   -3.99E-11   -3.00E-11 
VD          -1.40E+01   -1.40E+01   -4.01E+01   -3.99E+01   -3.00E+01 
REQ          1.00E+12    1.00E+12    1.00E+12    1.00E+12    1.00E+12 
CAP          2.58E-12    2.58E-12    0.00E+00    0.00E+00    0.00E+00 

NAME         X_U14.dc    X_U14.de    X_U14.dlp   X_U14.dln   X_U14.dp  
MODEL        X_U14.dy    X_U14.dy    X_U14.dx    X_U14.dx    X_U14.dx  
ID          -1.40E-11   -1.40E-11   -4.00E-11   -4.00E-11   -3.00E-11 
VD          -1.40E+01   -1.40E+01   -4.00E+01   -4.00E+01   -3.00E+01 
REQ          1.00E+12    1.00E+12    1.00E+12    1.00E+12    1.00E+12 
CAP          2.58E-12    2.58E-12    0.00E+00    0.00E+00    0.00E+00 

NAME         X_U7.dc     X_U7.de     X_U7.dlp    X_U7.dln    X_U7.dp   
MODEL        X_U7.dy     X_U7.dy     X_U7.dx     X_U7.dx     X_U7.dx   
ID          -1.40E-11   -1.40E-11   -4.00E-11   -4.00E-11   -3.00E-11 
VD          -1.40E+01   -1.40E+01   -4.00E+01   -4.00E+01   -3.00E+01 
REQ          1.00E+12    1.00E+12    1.00E+12    1.00E+12    1.00E+12 
CAP          2.58E-12    2.58E-12    0.00E+00    0.00E+00    0.00E+00 


**** BIPOLAR JUNCTION TRANSISTORS


NAME         X_U4.q1     X_U4.q2     X_U5.q1     X_U5.q2     X_U6.q1   
MODEL        X_U4.qx     X_U4.qx     X_U5.qx     X_U5.qx     X_U6.qx   
IB           7.98E-08    7.97E-08    8.93E-08    6.42E-08    7.98E-08 
IC           7.48E-06    7.48E-06    8.38E-06    6.02E-06    7.48E-06 
VBE          5.94E-01    5.94E-01    5.97E-01    5.88E-01    5.94E-01 
VBC         -1.50E+01   -1.50E+01   -1.49E+01   -1.50E+01   -1.49E+01 
VCE          1.56E+01    1.56E+01    1.55E+01    1.56E+01    1.55E+01 
BETADC       9.38E+01    9.38E+01    9.38E+01    9.38E+01    9.38E+01 
GM           2.89E-04    2.89E-04    3.24E-04    2.33E-04    2.89E-04 
RPI          3.24E+05    3.24E+05    2.90E+05    4.03E+05    3.24E+05 
RX           0.00E+00    0.00E+00    0.00E+00    0.00E+00    0.00E+00 
RO           1.00E+12    1.00E+12    1.00E+12    1.00E+12    1.00E+12 
CBE          0.00E+00    0.00E+00    0.00E+00    0.00E+00    0.00E+00 
CBC          0.00E+00    0.00E+00    0.00E+00    0.00E+00    0.00E+00 
CJS          0.00E+00    0.00E+00    0.00E+00    0.00E+00    0.00E+00 
BETAAC       9.38E+01    9.38E+01    9.38E+01    9.38E+01    9.38E+01 
CBX/CBX2     0.00E+00    0.00E+00    0.00E+00    0.00E+00    0.00E+00 
FT/FT2       4.60E+15    4.60E+15    5.15E+15    3.71E+15    4.60E+15 



NAME         X_U6.q2     X_U11.q1    X_U11.q2    X_U14.q1    X_U14.q2  
MODEL        X_U6.qx     X_U11.qx    X_U11.qx    X_U14.qx    X_U14.qx  
IB           7.97E-08    7.98E-08    7.97E-08    7.98E-08    7.97E-08 
IC           7.48E-06    7.48E-06    7.48E-06    7.48E-06    7.48E-06 
VBE          5.94E-01    5.94E-01    5.94E-01    5.94E-01    5.94E-01 
VBC         -1.49E+01   -1.50E+01   -1.50E+01   -1.50E+01   -1.50E+01 
VCE          1.55E+01    1.56E+01    1.56E+01    1.56E+01    1.56E+01 
BETADC       9.38E+01    9.38E+01    9.38E+01    9.38E+01    9.38E+01 
GM           2.89E-04    2.89E-04    2.89E-04    2.89E-04    2.89E-04 
RPI          3.24E+05    3.24E+05    3.24E+05    3.24E+05    3.24E+05 
RX           0.00E+00    0.00E+00    0.00E+00    0.00E+00    0.00E+00 
RO           1.00E+12    1.00E+12    1.00E+12    1.00E+12    1.00E+12 
CBE          0.00E+00    0.00E+00    0.00E+00    0.00E+00    0.00E+00 
CBC          0.00E+00    0.00E+00    0.00E+00    0.00E+00    0.00E+00 
CJS          0.00E+00    0.00E+00    0.00E+00    0.00E+00    0.00E+00 
BETAAC       9.38E+01    9.38E+01    9.38E+01    9.38E+01    9.38E+01 
CBX/CBX2     0.00E+00    0.00E+00    0.00E+00    0.00E+00    0.00E+00 
FT/FT2       4.60E+15    4.60E+15    4.60E+15    4.60E+15    4.60E+15 



NAME         X_U7.q1     X_U7.q2   
MODEL        X_U7.qx     X_U7.qx   
IB           7.98E-08    7.97E-08 
IC           7.48E-06    7.48E-06 
VBE          5.94E-01    5.94E-01 
VBC         -1.50E+01   -1.50E+01 
VCE          1.56E+01    1.56E+01 
BETADC       9.38E+01    9.38E+01 
GM           2.89E-04    2.89E-04 
RPI          3.24E+05    3.24E+05 
RX           0.00E+00    0.00E+00 
RO           1.00E+12    1.00E+12 
CBE          0.00E+00    0.00E+00 
CBC          0.00E+00    0.00E+00 
CJS          0.00E+00    0.00E+00 
BETAAC       9.38E+01    9.38E+01 
CBX/CBX2     0.00E+00    0.00E+00 
FT/FT2       4.60E+15    4.60E+15 


**** 02/22/22 15:59:57 ********* PSpice 9.2 (Mar 2000) ******** ID# 0 ********

 * E:\OneDrive - BUET\Tahsin\CODING ZONE\PSPICE Simulation\ALL EXPERIMENTS\EEE 208\OP-AMP\Regulated Variable DC Power Supply Generati


 ****     INITIAL TRANSIENT SOLUTION       TEMPERATURE =   27.000 DEG C


******************************************************************************



 NODE   VOLTAGE     NODE   VOLTAGE     NODE   VOLTAGE     NODE   VOLTAGE


(    A) 19.25E-06  (    B) 99.01E-06  (    C)     .0130  (    D)     .0261      

(    E)    -.0260  (    F)     .0261  (   V+)   15.0000  (   V-)  -15.0000      

(X_U4.6)-11.66E-09 (X_U4.7) 106.2E-06 (X_U4.8) 106.2E-06 (X_U4.9)    0.0000     

(X_U5.6)     .2304 (X_U5.7)   -1.2039 (X_U5.8)   -1.2039 (X_U5.9)    0.0000     

(X_U6.6)-3.021E-06 (X_U6.7)     .0281 (X_U6.8)     .0281 (X_U6.9)    0.0000     

(X_U7.6)-2.837E-06 (X_U7.7)     .0274 (X_U7.8)     .0274 (X_U7.9)    0.0000     

($N_0001)    -.1840                   ($N_0002)     .0130                       

($N_0003) 19.42E-06                   ($N_0004) 19.25E-06                       

($N_0013)    0.0000                   ($N_0014)    0.0000                       

($N_0015)    0.0000                   ($N_0018) 19.10E-06                       

(X_U11.6) 3.193E-06                   (X_U11.7)    -.0286                       

(X_U11.8)    -.0286                   (X_U11.9)    0.0000                       

(X_U14.6)-3.200E-09                   (X_U14.7) 23.23E-06                       

(X_U14.8) 23.23E-06                   (X_U14.9)    0.0000                       

(X_U4.10)    -.6077                   (X_U4.11)   14.9600                       

(X_U4.12)   14.9600                   (X_U4.13)    -.5938                       

(X_U4.14)    -.5938                   (X_U4.53)   14.0000                       

(X_U4.54)  -14.0000                   (X_U4.90) 144.0E-06                       

(X_U4.91)   40.0000                   (X_U4.92)  -40.0000                       

(X_U4.99)    0.0000                   (X_U5.10)    -.5993                       

